Temp	freq	eps_real	eps_imag	loss	condAC_real	condAC_imag	m_real	m_imag	z_real	z_imag	Cp	Rp	Z_real_normalized	Z_imag_normalized	|Z|	Theta	Z_real_normalized	Z_imag_normalized	Dimensions
339	100	54.1527	12.1231	0.223868	6.74E-08	3.01E-07	0.017585	0.00393672	1.04E+07	4.66E+07	3.25E-11	2.19E+08	7.08E+07	3.16E+08	4.77E+07	77.3814	6.74E-10	3.01E-09	0.0024
339	112.202	35.0126	3.10515	0.0886865	1.94E-08	2.19E-07	0.0283382	0.00251322	5.93E+06	6.69E+07	2.10E-11	7.60E+08	4.03E+07	4.54E+08	6.72E+07	84.9319	1.94E-10	2.19E-09	0.00016286
339	125.893	35.0619	0.549762	0.0156798	3.85E-09	2.46E-07	0.028514	0.000447092	940727	6.00E+07	2.11E-11	3.83E+09	6.38E+06	4.07E+08	6.00E+07	89.1017	3.85E-11	2.46E-09	0
339	141.254	34.5074	2.11712	0.0613525	1.66E-08	2.71E-07	0.0288706	0.00177129	3.32E+06	5.41E+07	2.07E-11	8.86E+08	2.25E+07	3.67E+08	5.42E+07	86.4892	1.66E-10	2.71E-09	0
339	158.489	34.7871	1.37002	0.0393831	1.21E-08	3.07E-07	0.0287018	0.00113036	1.89E+06	4.80E+07	2.09E-11	1.22E+09	1.28E+07	3.26E+08	4.80E+07	87.7447	1.21E-10	3.07E-09	0
339	177.828	32.99	0.654816	0.0198489	6.48E-09	3.26E-07	0.0303003	0.000601428	895883	4.51E+07	1.98E-11	2.27E+09	6.08E+06	3.06E+08	4.51E+07	88.8629	6.48E-11	3.26E-09	0
339	199.526	31.9709	5.19074	0.162358	5.76E-08	3.55E-07	0.0304751	0.0049479	6.57E+06	4.05E+07	1.92E-11	2.56E+08	4.46E+07	2.75E+08	4.10E+07	80.778	5.76E-10	3.55E-09	0
339	223.872	33.9559	1.07424	0.0316363	1.34E-08	4.23E-07	0.0294206	0.000930756	1.10E+06	3.48E+07	2.04E-11	1.10E+09	7.47E+06	2.36E+08	3.48E+07	88.188	1.34E-10	4.23E-09	0
339	251.189	35.1925	1.37572	0.0390912	1.92E-08	4.92E-07	0.0283718	0.00110909	1.17E+06	2.99E+07	2.11E-11	7.67E+08	7.94E+06	2.03E+08	2.99E+07	87.7614	1.92E-10	4.92E-09	0
339	281.838	36.5692	0.110501	0.0030217	1.73E-09	5.73E-07	0.0273452	8.26E-05	77660.5	2.57E+07	2.20E-11	8.51E+09	526991	1.74E+08	2.57E+07	89.8269	1.73E-11	5.73E-09	0
339	316.228	34.4585	1.66177	0.0482254	2.92E-08	6.06E-07	0.0289531	0.00139627	1.17E+06	2.43E+07	2.07E-11	5.04E+08	7.94E+06	1.65E+08	2.43E+07	87.239	2.92E-10	6.06E-09	0
339	354.813	34.4413	1.45818	0.0423382	2.88E-08	6.80E-07	0.028983	0.00122709	916101	2.16E+07	2.07E-11	5.12E+08	6.22E+06	1.47E+08	2.17E+07	87.5757	2.88E-10	6.80E-09	0
339	398.107	33.5921	1.45363	0.0432731	3.22E-08	7.44E-07	0.0297133	0.00128578	855533	1.98E+07	2.02E-11	4.58E+08	5.81E+06	1.34E+08	1.98E+07	87.5222	3.22E-10	7.44E-09	0
339	446.684	33.6917	0.206896	0.00614084	5.14E-09	8.37E-07	0.0296798	0.000182259	108083	1.76E+07	2.02E-11	2.87E+09	733432	1.19E+08	1.76E+07	89.6482	5.14E-11	8.37E-09	0
339	501.187	33.6461	0.857302	0.02548	2.39E-08	9.38E-07	0.0297019	0.000756803	399992	1.57E+07	2.02E-11	6.17E+08	2.71E+06	1.07E+08	1.57E+07	88.5404	2.39E-10	9.38E-09	0
339	562.341	34.979	2.80591	0.0802169	8.78E-08	1.09E-06	0.0284058	0.00227862	1.07E+06	1.34E+07	2.10E-11	1.68E+08	7.28E+06	9.08E+07	1.34E+07	85.4137	8.78E-10	1.09E-08	0
339	630.957	33.8849	0.222188	0.00655712	7.80E-09	1.19E-06	0.0295104	0.000193503	81237.4	1.24E+07	2.04E-11	1.89E+09	551264	8.41E+07	1.24E+07	89.6243	7.80E-11	1.19E-08	0
339	707.946	33.9674	0.627626	0.0184773	2.47E-08	1.34E-06	0.0294299	0.000543785	203468	1.10E+07	2.04E-11	5.96E+08	1.38E+06	7.47E+07	1.10E+07	88.9415	2.47E-10	1.34E-08	0
339	794.328	33.7569	0.657902	0.0194894	2.91E-08	1.49E-06	0.0296123	0.000577127	192460	9.88E+06	2.03E-11	5.07E+08	1.31E+06	6.70E+07	9.88E+06	88.8835	2.91E-10	1.49E-08	0
339	891.251	33.5462	0.682234	0.0203371	3.38E-08	1.66E-06	0.0297973	0.00060599	180108	8.86E+06	2.02E-11	4.36E+08	1.22E+06	6.01E+07	8.86E+06	88.8349	3.38E-10	1.66E-08	0
339	1000	33.589	0.164283	0.00489098	9.14E-09	1.87E-06	0.0297709	0.000145609	38570.6	7.89E+06	2.02E-11	1.61E+09	261734	5.35E+07	7.89E+06	89.7198	9.14E-11	1.87E-08	0
339	1122.02	33.6872	0.654651	0.0194332	4.09E-08	2.10E-06	0.0296736	0.000576654	136139	7.01E+06	2.02E-11	3.61E+08	923818	4.75E+07	7.01E+06	88.8867	4.09E-10	2.10E-08	0
339	1258.92	33.5539	0.556138	0.0165745	3.90E-08	2.35E-06	0.0297946	0.00049383	103907	6.27E+06	2.02E-11	3.78E+08	705097	4.25E+07	6.27E+06	89.0504	3.90E-10	2.35E-08	0
339	1412.54	33.446	0.488377	0.0146019	3.84E-08	2.63E-06	0.0298926	0.000436489	81854.3	5.61E+06	2.01E-11	3.84E+08	555450	3.80E+07	5.61E+06	89.1634	3.84E-10	2.63E-08	0
339	1584.89	33.3579	0.403051	0.0120826	3.55E-08	2.94E-06	0.0299735	0.000362159	60529.6	5.01E+06	2.00E-11	4.15E+08	410744	3.40E+07	5.01E+06	89.3077	3.55E-10	2.94E-08	0
339	1778.28	33.4251	0.522685	0.0156375	5.17E-08	3.31E-06	0.0299103	0.000467723	69671.7	4.46E+06	2.01E-11	2.85E+08	472781	3.02E+07	4.46E+06	89.1041	5.17E-10	3.31E-08	0
339	1995.26	33.3155	0.560201	0.016815	6.22E-08	3.70E-06	0.0300076	0.000504579	66988.1	3.98E+06	2.00E-11	2.37E+08	454570	2.70E+07	3.98E+06	89.0367	6.22E-10	3.70E-08	0
339	2238.72	33.4073	0.494535	0.0148032	6.16E-08	4.16E-06	0.029927	0.000443016	52418.9	3.54E+06	2.01E-11	2.39E+08	355706	2.40E+07	3.54E+06	89.1519	6.16E-10	4.16E-08	0
339	2511.89	33.3308	0.459131	0.013775	6.42E-08	4.66E-06	0.0299966	0.000413204	43574.5	3.16E+06	2.00E-11	2.30E+08	295689	2.15E+07	3.16E+06	89.2108	6.42E-10	4.66E-08	0
339	2818.38	33.3138	0.456299	0.013697	7.15E-08	5.22E-06	0.0300119	0.000411073	38635.5	2.82E+06	2.00E-11	2.06E+08	262174	1.91E+07	2.82E+06	89.2153	7.15E-10	5.22E-08	0
339	3162.28	33.2135	0.460734	0.0138719	8.11E-08	5.84E-06	0.0301025	0.000417578	34978.9	2.52E+06	2.00E-11	1.82E+08	237361	1.71E+07	2.52E+06	89.2052	8.11E-10	5.84E-08	0
339	3548.13	33.2759	0.441966	0.0132819	8.72E-08	6.57E-06	0.0300465	0.000399073	29793.4	2.24E+06	2.00E-11	1.69E+08	202173	1.52E+07	2.24E+06	89.2391	8.72E-10	6.57E-08	0
339	3981.07	33.2657	0.404899	0.0121717	8.97E-08	7.37E-06	0.0300565	0.000365837	24342	2.00E+06	2.00E-11	1.64E+08	165181	1.36E+07	2.00E+06	89.3026	8.97E-10	7.37E-08	0
339	4466.84	33.1955	0.384545	0.0115843	9.56E-08	8.25E-06	0.0301205	0.000348925	20691.9	1.79E+06	1.99E-11	1.54E+08	140412	1.21E+07	1.79E+06	89.3363	9.56E-10	8.25E-08	0
339	5011.87	33.2841	0.514728	0.0154647	1.44E-07	9.28E-06	0.0300372	0.000464515	24550.9	1.59E+06	2.00E-11	1.03E+08	166599	1.08E+07	1.59E+06	89.114	1.44E-09	9.28E-08	0
339	5623.41	33.1576	0.386908	0.0116688	1.21E-07	1.04E-05	0.0301549	0.00035187	16574.9	1.42E+06	1.99E-11	1.22E+08	112474	9.64E+06	1.42E+06	89.3315	1.21E-09	1.04E-07	0
339	6309.57	33.1476	0.341741	0.0103097	1.20E-07	1.16E-05	0.0301649	0.00031099	13056.1	1.27E+06	1.99E-11	1.23E+08	88596.8	8.59E+06	1.27E+06	89.4093	1.20E-09	1.16E-07	0
339	7079.46	33.0974	0.328358	0.00992095	1.29E-07	1.30E-05	0.0302109	0.000299721	11214.6	1.13E+06	1.99E-11	1.14E+08	76100.6	7.67E+06	1.13E+06	89.4316	1.29E-09	1.30E-07	0
339	7943.28	33.1376	0.347023	0.0104722	1.53E-07	1.46E-05	0.0301739	0.000315987	10537.5	1.01E+06	1.99E-11	9.61E+07	71505.6	6.83E+06	1.01E+06	89.4	1.53E-09	1.46E-07	0
339	8912.51	33.0894	0.313226	0.00946608	1.55E-07	1.64E-05	0.0302185	0.000286051	8501.8	898134	1.99E-11	9.49E+07	57691.8	6.09E+06	898174	89.4576	1.55E-09	1.64E-07	0
339	10000	33.1146	0.34128	0.010306	1.90E-07	1.84E-05	0.0301949	0.000311189	8243.15	799839	1.99E-11	7.76E+07	55936.6	5.43E+06	799881	89.4095	1.90E-09	1.84E-07	0
339	11220.2	33.0564	0.31015	0.00938247	1.94E-07	2.06E-05	0.0302487	0.000283807	6700.26	714126	1.99E-11	7.61E+07	45466.9	4.85E+06	714157	89.4624	1.94E-09	2.06E-07	0
339	12589.3	33.0142	0.30367	0.00919814	2.13E-07	2.31E-05	0.0302874	0.000278588	5861.79	637280	1.98E-11	6.93E+07	39777.1	4.32E+06	637307	89.473	2.13E-09	2.31E-07	0
339	14125.4	33.0128	0.271555	0.00822575	2.13E-07	2.59E-05	0.0302892	0.000249152	4672.31	568011	1.98E-11	6.91E+07	31705.5	3.85E+06	568030	89.5287	2.13E-09	2.59E-07	0
339	15848.9	33.0054	0.262438	0.00795136	2.31E-07	2.91E-05	0.0302962	0.000240896	4026.22	506356	1.98E-11	6.37E+07	27321.3	3.44E+06	506372	89.5444	2.31E-09	2.91E-07	0
339	17782.8	32.9753	0.24987	0.00757749	2.47E-07	3.26E-05	0.0303239	0.000229779	3422.78	451704	1.98E-11	5.96E+07	23226.4	3.07E+06	451717	89.5659	2.47E-09	3.26E-07	0
339	19952.6	32.9724	0.242689	0.00736036	2.69E-07	3.66E-05	0.0303268	0.000223216	2963.42	402619	1.98E-11	5.47E+07	20109.3	2.73E+06	402630	89.5783	2.69E-09	3.66E-07	0
339	22387.2	32.948	0.244275	0.00741395	3.04E-07	4.10E-05	0.0303492	0.000225007	2662.35	359100	1.98E-11	4.84E+07	18066.2	2.44E+06	359110	89.5752	3.04E-09	4.10E-07	0
339	25118.9	32.9274	0.236191	0.00717308	3.30E-07	4.60E-05	0.0303683	0.000217834	2297.17	320250	1.98E-11	4.46E+07	15588.2	2.17E+06	320258	89.589	3.30E-09	4.60E-07	0
339	28183.8	32.9159	0.232569	0.00706556	3.65E-07	5.16E-05	0.0303789	0.000214644	2017.38	285523	1.98E-11	4.04E+07	13689.6	1.94E+06	285530	89.5952	3.65E-09	5.16E-07	0
339	31622.8	32.9	0.231441	0.00703467	4.07E-07	5.79E-05	0.0303936	0.000213809	1790.99	254595	1.98E-11	3.62E+07	12153.4	1.73E+06	254602	89.597	4.07E-09	5.79E-07	0
339	35481.3	32.8824	0.21679	0.0065929	4.28E-07	6.49E-05	0.0304101	0.000200491	1496.8	227031	1.98E-11	3.44E+07	10157	1.54E+06	227036	89.6223	4.28E-09	6.49E-07	0
339	39810.7	32.8691	0.221361	0.00673463	4.90E-07	7.28E-05	0.0304223	0.000204883	1363.25	202423	1.97E-11	3.01E+07	9250.76	1.37E+06	202428	89.6141	4.90E-09	7.28E-07	0
339	44668.4	32.8555	0.204794	0.00623318	5.09E-07	8.16E-05	0.0304351	0.000189707	1125	180486	1.97E-11	2.90E+07	7634.06	1.22E+06	180489	89.6429	5.09E-09	8.16E-07	0
339	50118.7	32.8405	0.202969	0.00618046	5.66E-07	9.16E-05	0.0304491	0.000188189	994.635	160932	1.97E-11	2.60E+07	6749.42	1.09E+06	160935	89.6459	5.66E-09	9.16E-07	0
339	56234.1	32.829	0.202354	0.00616388	6.33E-07	0.000102704	0.0304597	0.00018775	884.399	143481	1.97E-11	2.33E+07	6001.38	973637	143484	89.6468	6.33E-09	1.03E-06	0
339	63095.7	32.8142	0.19531	0.00595199	6.86E-07	0.000115183	0.0304736	0.000181378	761.472	127936	1.97E-11	2.15E+07	5167.22	868150	127938	89.659	6.86E-09	1.15E-06	0
339	70794.6	32.7961	0.192792	0.00587851	7.59E-07	0.000129167	0.0304904	0.000179238	670.654	114086	1.97E-11	1.94E+07	4550.95	774167	114088	89.6632	7.59E-09	1.29E-06	0
339	79432.8	32.7855	0.188169	0.0057394	8.32E-07	0.000144881	0.0305003	0.000175053	583.766	101712	1.97E-11	1.77E+07	3961.34	690200	101714	89.6712	8.32E-09	1.45E-06	0
339	89125.1	32.7719	0.188297	0.00574569	9.34E-07	0.000162491	0.030513	0.000175318	521.069	90688.6	1.97E-11	1.58E+07	3535.88	615398	90690.1	89.6708	9.34E-09	1.62E-06	0
339	100000	32.7622	0.194206	0.00592773	1.08E-06	0.000182264	0.0305219	0.000180926	479.257	80849.9	1.97E-11	1.36E+07	3252.15	548634	80851.3	89.6604	1.08E-08	1.82E-06	0
339	112202	32.7474	0.172832	0.00527775	1.08E-06	0.000204411	0.0305359	0.000161161	380.477	72090.8	1.97E-11	1.37E+07	2581.85	489196	72091.8	89.6976	1.08E-08	2.04E-06	0
339	125893	32.7324	0.199399	0.0060918	1.40E-06	0.000229249	0.0305496	0.000186102	391.579	64279.7	1.97E-11	1.06E+07	2657.19	436191	64280.9	89.651	1.40E-08	2.29E-06	0
339	141254	32.7213	0.187121	0.00571863	1.47E-06	0.000257133	0.0305602	0.000174762	327.73	57309.2	1.97E-11	1.00E+07	2223.92	388890	57310.1	89.6723	1.47E-08	2.57E-06	0
339	158489	32.7039	0.184767	0.00564969	1.63E-06	0.000288355	0.0305764	0.000172747	288.722	51104	1.96E-11	9.05E+06	1959.22	346783	51104.8	89.6763	1.63E-08	2.88E-06	0
339	177828	32.6938	0.185212	0.00566505	1.83E-06	0.00032344	0.0305859	0.000173271	258.103	45560.6	1.96E-11	8.04E+06	1751.44	309167	45561.3	89.6754	1.83E-08	3.23E-06	0
339	199526	32.68	0.181643	0.00555823	2.02E-06	0.000362753	0.0305988	0.000170075	225.792	40623	1.96E-11	7.31E+06	1532.19	275661	40623.7	89.6815	2.02E-08	3.63E-06	0
339	223872	32.6674	0.183711	0.00562368	2.29E-06	0.000406858	0.0306106	0.000172144	203.686	36219.3	1.96E-11	6.44E+06	1382.18	245778	36219.9	89.6778	2.29E-08	4.07E-06	0
339	251189	32.6546	0.184842	0.00566051	2.58E-06	0.000456324	0.0306226	0.000173339	182.796	32293.1	1.96E-11	5.71E+06	1240.42	219136	32293.6	89.6757	2.58E-08	4.56E-06	0
339	281838	32.6402	0.191694	0.00587293	3.01E-06	0.000511778	0.030636	0.000179923	169.104	28793.9	1.96E-11	4.90E+06	1147.51	195390	28794.4	89.6635	3.01E-08	5.12E-06	0
339	316228	32.6397	0.184165	0.00564236	3.24E-06	0.000574216	0.0306365	0.000172862	144.8	25663	1.96E-11	4.55E+06	982.589	174145	25663.4	89.6767	3.24E-08	5.74E-06	0
339	354813	32.6193	0.191536	0.00587188	3.78E-06	0.000643877	0.0306557	0.000180006	134.387	22886.5	1.96E-11	3.90E+06	911.925	155304	22886.9	89.6636	3.78E-08	6.44E-06	0
339	398107	32.6068	0.189727	0.00581864	4.20E-06	0.000722166	0.0306674	0.000178443	118.732	20405.4	1.96E-11	3.51E+06	805.694	138468	20405.7	89.6666	4.20E-08	7.22E-06	0
339	446684	32.592	0.187622	0.00575668	4.66E-06	0.000809915	0.0306814	0.000176623	104.741	18194.6	1.96E-11	3.16E+06	710.753	123466	18194.9	89.6702	4.66E-08	8.10E-06	0
339	501187	32.5833	0.193452	0.00593716	5.39E-06	0.000908498	0.0306895	0.000182208	96.3021	16220.2	1.96E-11	2.73E+06	653.49	110068	16220.5	89.6598	5.39E-08	9.08E-06	0
339	562341	32.57	0.191241	0.0058717	5.98E-06	0.00101893	0.030702	0.000180273	84.918	14462.2	1.96E-11	2.46E+06	576.239	98138.4	14462.5	89.6636	5.98E-08	1.02E-05	0
339	630957	32.5574	0.193401	0.0059403	6.79E-06	0.00114282	0.0307139	0.00018245	76.5969	12894.5	1.96E-11	2.17E+06	519.774	87499.7	12894.7	89.6597	6.79E-08	1.14E-05	0
339	707946	32.5503	0.192574	0.00591621	7.58E-06	0.00128199	0.0307206	0.00018175	68.0052	11494.7	1.96E-11	1.94E+06	461.472	78001.2	11494.9	89.661	7.58E-08	1.28E-05	0
339	794328	32.5318	0.18949	0.00582475	8.37E-06	0.0014376	0.0307381	0.000179042	59.7067	10250.5	1.95E-11	1.76E+06	405.159	69558.2	10250.7	89.6663	8.37E-08	1.44E-05	0
339	891251	32.5223	0.187805	0.00577466	9.31E-06	0.00161254	0.0307472	0.000177554	52.7715	9138.46	1.95E-11	1.58E+06	358.099	62012.1	9138.61	89.6691	9.31E-08	1.61E-05	0
339	1.00E+06	32.5089	0.186298	0.00573068	1.04E-05	0.00180855	0.0307598	0.000176274	46.6936	8148.01	1.95E-11	1.42E+06	316.855	55291.1	8148.15	89.6717	1.04E-07	1.81E-05	0
354	100	35.4986	26.8782	0.757163	1.50E-07	1.97E-07	0.0179052	0.0135571	3.59E+07	4.74E+07	2.13E-11	9.86E+07	2.44E+08	3.22E+08	5.95E+07	52.8684	1.50E-09	1.97E-09	0
354	112.202	34.0385	3.26623	0.0959572	2.04E-08	2.12E-07	0.0291105	0.00279336	6.59E+06	6.87E+07	2.05E-11	7.23E+08	4.48E+07	4.66E+08	6.90E+07	84.5188	2.04E-10	2.12E-09	0
354	125.893	36.2531	2.21434	0.0610801	1.55E-08	2.54E-07	0.0274813	0.00167856	3.53E+06	5.78E+07	2.18E-11	9.50E+08	2.40E+07	3.92E+08	5.79E+07	86.5047	1.55E-10	2.54E-09	0
354	141.254	35.3794	2.05042	0.0579551	1.61E-08	2.78E-07	0.0281704	0.00163262	3.06E+06	5.28E+07	2.13E-11	9.15E+08	2.08E+07	3.58E+08	5.29E+07	86.6831	1.61E-10	2.78E-09	0
354	158.489	34.9155	1.50172	0.0430101	1.32E-08	3.08E-07	0.0285877	0.00122956	2.06E+06	4.78E+07	2.10E-11	1.11E+09	1.39E+07	3.24E+08	4.78E+07	87.5372	1.32E-10	3.08E-09	0
354	177.828	35.6399	1.81615	0.0509584	1.80E-08	3.53E-07	0.0279858	0.00142611	2.12E+06	4.17E+07	2.14E-11	8.20E+08	1.44E+07	2.83E+08	4.17E+07	87.0828	1.80E-10	3.53E-09	0
354	199.526	32.4461	2.09103	0.0644461	2.32E-08	3.60E-07	0.0306929	0.00197803	2.63E+06	4.07E+07	1.95E-11	6.35E+08	1.78E+07	2.77E+08	4.08E+07	86.3126	2.32E-10	3.60E-09	0
354	223.872	35.1097	0.964267	0.0274644	1.20E-08	4.37E-07	0.0284607	0.000781657	924879	3.37E+07	2.11E-11	1.23E+09	6.28E+06	2.29E+08	3.37E+07	88.4268	1.20E-10	4.37E-09	0
354	251.189	34.8176	1.6606	0.0476942	2.32E-08	4.87E-07	0.0286559	0.00136672	1.44E+06	3.02E+07	2.09E-11	6.35E+08	9.78E+06	2.05E+08	3.03E+07	87.2694	2.32E-10	4.87E-09	0
354	281.838	38.168	1.17573	0.030804	1.84E-08	5.98E-07	0.0261751	0.000806297	757816	2.46E+07	2.29E-11	7.99E+08	5.14E+06	1.67E+08	2.46E+07	88.2356	1.84E-10	5.98E-09	0
354	316.228	35.2576	1.3733	0.0389506	2.42E-08	6.20E-07	0.0283197	0.00110307	924000	2.37E+07	2.12E-11	6.10E+08	6.27E+06	1.61E+08	2.37E+07	87.7694	2.42E-10	6.20E-09	0
354	354.813	33.4086	2.74597	0.0821935	5.42E-08	6.59E-07	0.0297315	0.00244374	1.82E+06	2.22E+07	2.01E-11	2.72E+08	1.24E+07	1.51E+08	2.23E+07	85.3012	5.42E-10	6.59E-09	0
354	398.107	34.2346	1.24255	0.036295	2.75E-08	7.58E-07	0.0291718	0.00105879	704496	1.94E+07	2.06E-11	5.35E+08	4.78E+06	1.32E+08	1.94E+07	87.9214	2.75E-10	7.58E-09	0
354	446.684	34.3772	1.10439	0.0321256	2.74E-08	8.54E-07	0.029059	0.000933539	553606	1.72E+07	2.07E-11	5.37E+08	3.76E+06	1.17E+08	1.72E+07	88.16	2.74E-10	8.54E-09	0
354	501.187	34.3558	0.91872	0.0267413	2.56E-08	9.58E-07	0.0290863	0.000777808	411093	1.54E+07	2.06E-11	5.75E+08	2.79E+06	1.04E+08	1.54E+07	88.4682	2.56E-10	9.58E-09	0
354	562.341	33.6207	-0.382212	-0.0113683	-1.20E-08	1.05E-06	0.0297397	-0.000338091	-159258	1.40E+07	2.02E-11	-1.23E+09	-1.08E+06	9.51E+07	1.40E+07	-89.3487	-1.20E-10	1.05E-08	0
354	630.957	33.7087	1.10052	0.0326479	3.86E-08	1.18E-06	0.0296343	0.000967498	406180	1.24E+07	2.03E-11	3.81E+08	2.76E+06	8.44E+07	1.24E+07	88.1301	3.86E-10	1.18E-08	0
354	707.946	34.3543	0.565769	0.0164687	2.23E-08	1.35E-06	0.0291006	0.000479248	179320	1.09E+07	2.06E-11	6.61E+08	1.22E+06	7.39E+07	1.09E+07	89.0565	2.23E-10	1.35E-08	0
354	794.328	34.0953	1.00926	0.029601	4.46E-08	1.51E-06	0.0293039	0.000867427	289268	9.77E+06	2.05E-11	3.30E+08	1.96E+06	6.63E+07	9.78E+06	88.3045	4.46E-10	1.51E-08	0
354	891.251	33.9378	0.678226	0.0199844	3.36E-08	1.68E-06	0.0294539	0.00058862	174946	8.75E+06	2.04E-11	4.38E+08	1.19E+06	5.94E+07	8.76E+06	88.8551	3.36E-10	1.68E-08	0
354	1000	33.4734	0.797631	0.0238288	4.44E-08	1.86E-06	0.0298575	0.000711468	188462	7.91E+06	2.01E-11	3.32E+08	1.28E+06	5.37E+07	7.91E+06	88.635	4.44E-10	1.86E-08	0
354	1122.02	33.9984	0.635921	0.0187044	3.97E-08	2.12E-06	0.0294029	0.000549964	129838	6.94E+06	2.04E-11	3.71E+08	881060	4.71E+07	6.94E+06	88.9284	3.97E-10	2.12E-08	0
354	1258.92	34.002	0.822083	0.0241775	5.76E-08	2.38E-06	0.0293929	0.000710647	149528	6.18E+06	2.04E-11	2.56E+08	1.01E+06	4.20E+07	6.19E+06	88.615	5.76E-10	2.38E-08	0
354	1412.54	33.7873	0.77034	0.0227997	6.05E-08	2.66E-06	0.0295816	0.000674451	126479	5.55E+06	2.03E-11	2.43E+08	858265	3.76E+07	5.55E+06	88.6939	6.05E-10	2.66E-08	0
354	1584.89	33.8562	0.658223	0.0194418	5.80E-08	2.99E-06	0.0295256	0.000574029	95940.5	4.93E+06	2.03E-11	2.54E+08	651036	3.35E+07	4.94E+06	88.8862	5.80E-10	2.99E-08	0
354	1778.28	33.8376	0.699171	0.0206626	6.92E-08	3.35E-06	0.0295403	0.00061038	90921.9	4.40E+06	2.03E-11	2.13E+08	616981	2.99E+07	4.40E+06	88.8163	6.92E-10	3.35E-08	0
354	1995.26	33.7004	0.610365	0.0181115	6.78E-08	3.74E-06	0.0296635	0.000537251	71325.6	3.94E+06	2.02E-11	2.18E+08	484004	2.67E+07	3.94E+06	88.9624	6.78E-10	3.74E-08	0
354	2238.72	33.7578	0.582885	0.0172667	7.26E-08	4.20E-06	0.029614	0.000511335	60502.6	3.50E+06	2.03E-11	2.03E+08	410560	2.38E+07	3.50E+06	89.0108	7.26E-10	4.20E-08	0
354	2511.89	33.7592	0.620288	0.0183739	8.67E-08	4.72E-06	0.0296116	0.000544081	57376.2	3.12E+06	2.03E-11	1.70E+08	389346	2.12E+07	3.12E+06	88.9474	8.67E-10	4.72E-08	0
354	2818.38	33.6475	0.709779	0.0210946	1.11E-07	5.28E-06	0.0297067	0.000626649	58897	2.79E+06	2.02E-11	1.32E+08	399665	1.89E+07	2.79E+06	88.7915	1.11E-09	5.28E-08	0
354	3162.28	33.5872	0.613001	0.018251	1.08E-07	5.91E-06	0.0297633	0.00054321	45502.6	2.49E+06	2.02E-11	1.37E+08	308773	1.69E+07	2.49E+06	88.9544	1.08E-09	5.91E-08	0
354	3548.13	33.5794	0.529916	0.015781	1.05E-07	6.63E-06	0.0297728	0.000469845	35077	2.22E+06	2.02E-11	1.41E+08	238027	1.51E+07	2.22E+06	89.0959	1.05E-09	6.63E-08	0
354	3981.07	33.5497	0.540424	0.0161082	1.20E-07	7.43E-06	0.0297988	0.000480004	31938.4	1.98E+06	2.02E-11	1.23E+08	216729	1.35E+07	1.98E+06	89.0771	1.20E-09	7.43E-08	0
354	4466.84	33.5198	0.500689	0.0149371	1.24E-07	8.33E-06	0.0298265	0.000445521	26420.2	1.77E+06	2.01E-11	1.18E+08	179283	1.20E+07	1.77E+06	89.1442	1.24E-09	8.33E-08	0
354	5011.87	33.502	0.338758	0.0101116	9.45E-08	9.34E-06	0.0298459	0.000301788	15950.4	1.58E+06	2.01E-11	1.56E+08	108237	1.07E+07	1.58E+06	89.4207	9.45E-10	9.34E-08	0
354	5623.41	33.4856	0.448293	0.0133876	1.40E-07	1.05E-05	0.0298582	0.000399732	18829.4	1.41E+06	2.01E-11	1.05E+08	127773	9.54E+06	1.41E+06	89.233	1.40E-09	1.05E-07	0
354	6309.57	33.4393	0.442683	0.0132384	1.55E-07	1.17E-05	0.0298997	0.000395824	16617.7	1.26E+06	2.01E-11	9.48E+07	112765	8.52E+06	1.26E+06	89.2415	1.55E-09	1.17E-07	0
